[2023-Jan-16 00:14:58] [debug] --------------------------------------------------------------------------------
[2023-Jan-16 00:14:58] [debug] nrfjprog -f nrf52 --program _build/nrf52810_xxaa.hex --sectorerase --log 
[2023-Jan-16 00:14:58] [debug] nrfjprog version 10.18.1 external
[2023-Jan-16 00:14:58] [debug] --------------------------------------------------------------------------------
[2023-Jan-16 00:14:58] [ info] Load library at /Applications/Nordic Semiconductor/lib/libnrfjprogdll.dylib.
[2023-Jan-16 00:14:58] [ info] Library loaded, loading member functions.
[2023-Jan-16 00:14:58] [ info] Member functions succesfully loaded.
[2023-Jan-16 00:14:58] [debug] [ Client] - open
[2023-Jan-16 00:14:58] [debug] [ Client] - start
[2023-Jan-16 00:14:58] [ info] [ Client] - stdout: Jlinkarm nRF Worker ready. Handling sequence 73be0181-c27f-478d-85b5-aaffd082fe12.
[2023-Jan-16 00:14:58] [debug] [SeggerBackend] - Logger sink registered in Segger backend logger
[2023-Jan-16 00:14:58] [debug] [  JLink] - Logger sink registered in JLink logger
[2023-Jan-16 00:14:58] [debug] [  nRF52] - open
[2023-Jan-16 00:14:58] [debug] [  nRF52] - just_check_family
[2023-Jan-16 00:14:58] [debug] [SeggerBackend] - open_dll
[2023-Jan-16 00:14:58] [debug] [SeggerBackend] - No J-Link DLL path was provided. Attempting to auto detect.
[2023-Jan-16 00:14:58] [ info] [SeggerBackend] - Load library at /Applications/SEGGER/JLink/libjlinkarm.7.80.3.dylib.
[2023-Jan-16 00:14:58] [ info] [SeggerBackend] - Library loaded, loading member functions.
[2023-Jan-16 00:14:58] [ info] [SeggerBackend] - Member functions succesfully loaded.
[2023-Jan-16 00:14:58] [debug] [SeggerBackend] - Set batch mode
[2023-Jan-16 00:14:58] [trace] [ Client] - Command open executed for 52 milliseconds with result 0
[2023-Jan-16 00:14:58] [debug] [ Client] - config
[2023-Jan-16 00:14:58] [debug] [SeggerBackend] - dll_version
[2023-Jan-16 00:14:58] [ info] [SeggerBackend] - Segger dll version 7.80.c loaded.
[2023-Jan-16 00:14:58] [trace] [ Worker] - Command open executed for 33 milliseconds with result 0
[2023-Jan-16 00:14:58] [debug] [  nRF52] - config
[2023-Jan-16 00:14:58] [trace] [ Worker] - Command config executed for 12 milliseconds with result 0
[2023-Jan-16 00:14:58] [trace] [ Client] - Command config executed for 15 milliseconds with result 0
[2023-Jan-16 00:14:58] [debug] [ Client] - enum_emu_snr
[2023-Jan-16 00:14:58] [trace] [ Client] - Command enum_emu_con_info executed for 2 milliseconds with result 0
[2023-Jan-16 00:14:58] [debug] [ Client] - connect_to_emu_with_snr
[2023-Jan-16 00:14:58] [debug] [  nRF52] - enum_emu_con_info
[2023-Jan-16 00:14:58] [debug] [SeggerBackend] - is_connected_to_emu
[2023-Jan-16 00:14:58] [debug] [SeggerBackend] - enum_emu_con_info
[2023-Jan-16 00:14:58] [debug] [SeggerBackend] - is_connected_to_emu
[2023-Jan-16 00:14:58] [trace] [ Worker] - Command enum_emu_con_info executed for 2 milliseconds with result 0
[2023-Jan-16 00:14:58] [debug] [  nRF52] - connect_to_emu_with_snr
[2023-Jan-16 00:14:58] [debug] [SeggerBackend] - is_connected_to_emu
[2023-Jan-16 00:14:58] [debug] [SeggerBackend] - connect_to_emu_with_snr
[2023-Jan-16 00:14:58] [debug] [SeggerBackend] - is_connected_to_emu
[2023-Jan-16 00:14:58] [debug] [SeggerBackend] - ---just_enum_emu_snr
[2023-Jan-16 00:14:58] [debug] [SeggerBackend] - ---just_get_num_emus
[2023-Jan-16 00:14:58] [debug] [SeggerBackend] - ---just_connect_to_emu_with_snr
[2023-Jan-16 00:14:58] [debug] [SeggerBackend] - ---just_connect_to_emu_without_snr
[2023-Jan-16 00:14:58] [debug] [SeggerBackend] - Segger logging enabled.
[2023-Jan-16 00:14:58] [trace] [  JLink] - Firmware: J-Link V9 compiled May  7 2021 16:26:12
[2023-Jan-16 00:14:58] [trace] [  JLink] - Firmware: J-Link V9 compiled May  7 2021 16:26:12
[2023-Jan-16 00:14:58] [trace] [  JLink] - Decompressing FW timestamp took 752 us
[2023-Jan-16 00:14:58] [trace] [ Client] - Command connect_to_emu_with_snr executed for 47 milliseconds with result 0
[2023-Jan-16 00:14:58] [debug] [ Client] - read_connected_emu_snr
[2023-Jan-16 00:14:58] [trace] [ Client] - Command read_connected_emu_snr executed for 0 milliseconds with result 0
[2023-Jan-16 00:14:58] [debug] [ Client] - read_device_info
[2023-Jan-16 00:14:58] [trace] [  JLink] - Hardware: V9.70
[2023-Jan-16 00:14:58] [trace] [  JLink] - S/N: 59701292
[2023-Jan-16 00:14:58] [trace] [  JLink] - OEM: SEGGER
[2023-Jan-16 00:14:58] [trace] [  JLink] - Feature(s): RDI, GDB, FlashDL, FlashBP, JFlash
[2023-Jan-16 00:14:58] [trace] [  JLink] - TELNET listener socket opened on port 19021
[2023-Jan-16 00:14:58] [trace] [  JLink] - WEBSRV WEBSRV_Init(): Starting webserver thread(s)
[2023-Jan-16 00:14:58] [trace] [  JLink] - WEBSRV Webserver running on local port 19080
[2023-Jan-16 00:14:58] [trace] [  JLink] - - 22.167ms returns "O.K."  
[2023-Jan-16 00:14:58] [trace] [  JLink] - JLINK_HasError()  
[2023-Jan-16 00:14:58] [trace] [  JLink] - JLINK_Lock()  
[2023-Jan-16 00:14:58] [trace] [  JLink] - JLINK_ExecCommand("SetRestartOnClose = 0", ...).   
[2023-Jan-16 00:14:58] [trace] [  JLink] - - 0.170ms returns 0x01  
[2023-Jan-16 00:14:58] [trace] [  JLink] - JLINK_HasError()  
[2023-Jan-16 00:14:58] [trace] [  JLink] - JLINK_ExecCommand("DisableFlashDL", ...).   
[2023-Jan-16 00:14:58] [trace] [  JLink] - - 0.002ms returns 0x00  
[2023-Jan-16 00:14:58] [trace] [  JLink] - JLINK_HasError()  
[2023-Jan-16 00:14:58] [trace] [  JLink] - JLINK_ExecCommand("ExcludeFlashCacheRange 0x0-0xFFFFFFFF", ...).   
[2023-Jan-16 00:14:58] [trace] [  JLink] - - 0.001ms returns 0x00  
[2023-Jan-16 00:14:58] [trace] [  JLink] - JLINK_HasError()  
[2023-Jan-16 00:14:58] [trace] [  JLink] - JLINK_SetHookUnsecureDialog  
[2023-Jan-16 00:14:58] [trace] [  JLink] - JLINK_SetHookUnsecureDialog(...)
[2023-Jan-16 00:14:58] [trace] [  JLink] - - 0.007ms returns 0  
[2023-Jan-16 00:14:58] [trace] [  JLink] - JLINK_HasError()  
[2023-Jan-16 00:14:58] [trace] [  JLink] - JLINK_TIF_Select(JLINKARM_TIF_SWD)  
[2023-Jan-16 00:14:58] [trace] [  JLink] - - 0.743ms returns 0x00  
[2023-Jan-16 00:14:58] [trace] [  JLink] - JLINK_HasError()  
[2023-Jan-16 00:14:58] [trace] [  JLink] - JLINK_GetSpeedInfo()  
[2023-Jan-16 00:14:58] [trace] [  JLink] - 12000000 Hz / n, n >= 1
[2023-Jan-16 00:14:58] [trace] [  JLink] - - 0.007ms  
[2023-Jan-16 00:14:58] [trace] [  JLink] - JLINK_HasError()  
[2023-Jan-16 00:14:58] [debug] [SeggerBackend] - Connected emulator supports SWD speeds up to 12000kHz
[2023-Jan-16 00:14:58] [trace] [  JLink] - JLINK_SetSpeed(2000)  
[2023-Jan-16 00:14:58] [trace] [  JLink] - - 0.373ms  
[2023-Jan-16 00:14:58] [trace] [  JLink] - JLINK_HasError()  
[2023-Jan-16 00:14:58] [trace] [  JLink] - JLINK_GetSpeed()  
[2023-Jan-16 00:14:58] [trace] [  JLink] - - 0.002ms returns 2000  
[2023-Jan-16 00:14:58] [trace] [  JLink] - JLINK_HasError()  
[2023-Jan-16 00:14:58] [debug] [SeggerBackend] - SWD clock set to 2000kHz
[2023-Jan-16 00:14:58] [trace] [  JLink] - JLINK_GetSN()  
[2023-Jan-16 00:14:58] [trace] [  JLink] - - 0.002ms returns 59701292  
[2023-Jan-16 00:14:58] [trace] [  JLink] - JLINK_HasError()  
[2023-Jan-16 00:14:58] [trace] [  JLink] - - 0.009ms  
[2023-Jan-16 00:14:58] [trace] [ Worker] - Command connect_to_emu_with_snr executed for 44 milliseconds with result 0
[2023-Jan-16 00:14:58] [debug] [  nRF52] - read_connected_emu_snr
[2023-Jan-16 00:14:58] [debug] [SeggerBackend] - is_connected_to_emu
[2023-Jan-16 00:14:58] [trace] [  JLink] - JLINK_IsOpen()  
[2023-Jan-16 00:14:58] [trace] [  JLink] - - 0.004ms returns 0x01  
[2023-Jan-16 00:14:58] [trace] [  JLink] - JLINK_HasError()  
[2023-Jan-16 00:14:58] [trace] [  JLink] - JLINK_Lock()  
[2023-Jan-16 00:14:58] [debug] [SeggerBackend] - read_connected_emu_snr
[2023-Jan-16 00:14:58] [trace] [  JLink] - - 0.018ms  
[2023-Jan-16 00:14:58] [trace] [ Worker] - Command read_connected_emu_snr executed for 0 milliseconds with result 0
[2023-Jan-16 00:14:58] [debug] [  nRF52] - read_device_info
[2023-Jan-16 00:14:58] [debug] [SeggerBackend] - is_connected_to_emu
[2023-Jan-16 00:14:58] [trace] [  JLink] - JLINK_IsOpen()  
[2023-Jan-16 00:14:58] [trace] [  JLink] - - 0.004ms returns 0x01  
[2023-Jan-16 00:14:58] [trace] [  JLink] - JLINK_HasError()  
[2023-Jan-16 00:14:58] [trace] [  JLink] - JLINK_Lock()  
[2023-Jan-16 00:14:58] [debug] [  nRF52] - Just_read_device_version
[2023-Jan-16 00:14:58] [debug] [  nRF52] - Just_readback_status
[2023-Jan-16 00:14:58] [debug] [  nRF52] - Just_is_ctrl_ap_available
[2023-Jan-16 00:14:58] [debug] [SeggerBackend] - read_access_port_register
[2023-Jan-16 00:14:58] [debug] [SeggerBackend] - ---just_read_access_port_register
[2023-Jan-16 00:14:58] [debug] [SeggerBackend] - coresight_configure
[2023-Jan-16 00:14:58] [trace] [  JLink] - JLINK_GetHWStatus(...)  
[2023-Jan-16 00:14:58] [trace] [  JLink] - - 0.196ms returns 0  
[2023-Jan-16 00:14:58] [trace] [  JLink] - JLINK_HasError()  
[2023-Jan-16 00:14:58] [trace] [  JLink] - JLINK_CORESIGHT_Configure()  
[2023-Jan-16 00:14:58] [trace] [  JLink] - - 0.986ms returns 0  
[2023-Jan-16 00:14:58] [trace] [  JLink] - JLINK_HasError()  
[2023-Jan-16 00:14:58] [debug] [SeggerBackend] - read_debug_port_idr
[2023-Jan-16 00:14:58] [debug] [SeggerBackend] - read_debug_port_register
[2023-Jan-16 00:14:58] [debug] [SeggerBackend] - ---just_read_debug_port_register
[2023-Jan-16 00:14:58] [debug] [SeggerBackend] - ---just_select_debug_port_register
[2023-Jan-16 00:14:58] [debug] [SeggerBackend] - Select AP 255, DP Bank 0, AP Bank 255
[2023-Jan-16 00:14:58] [trace] [  JLink] - JLINK_CORESIGHT_WriteAPDPReg(DP reg 0x02, 0x00000000)  
[2023-Jan-16 00:14:58] [trace] [  JLink] - - 0.241ms returns 0  
[2023-Jan-16 00:14:58] [trace] [  JLink] - JLINK_HasError()  
[2023-Jan-16 00:14:58] [trace] [  JLink] - JLINK_CORESIGHT_ReadAPDPReg(DP reg 0x00)  
[2023-Jan-16 00:14:58] [trace] [  JLink] - Value=0x2BA01477
[2023-Jan-16 00:14:58] [trace] [  JLink] - - 0.283ms returns 0  
[2023-Jan-16 00:14:58] [trace] [  JLink] - JLINK_HasError()  
[2023-Jan-16 00:14:58] [debug] [SeggerBackend] - ---just_is_debug_region_powered
[2023-Jan-16 00:14:58] [debug] [SeggerBackend] - ---just_read_debug_port_register
[2023-Jan-16 00:14:58] [debug] [SeggerBackend] - ---just_select_debug_port_register
[2023-Jan-16 00:14:58] [trace] [  JLink] - JLINK_CORESIGHT_ReadAPDPReg(DP reg 0x01)  
[2023-Jan-16 00:14:58] [trace] [  JLink] - Value=0xF0000040
[2023-Jan-16 00:14:58] [trace] [  JLink] - - 0.348ms returns 0  
[2023-Jan-16 00:14:58] [trace] [  JLink] - JLINK_HasError()  
[2023-Jan-16 00:14:58] [debug] [SeggerBackend] - ---just_select_access_port_register
[2023-Jan-16 00:14:58] [debug] [SeggerBackend] - Select AP 1, DP Bank 0, AP Bank 15
[2023-Jan-16 00:14:58] [trace] [  JLink] - JLINK_CORESIGHT_WriteAPDPReg(DP reg 0x02, 0x010000F0)  
[2023-Jan-16 00:14:58] [trace] [  JLink] - - 0.266ms returns 0  
[2023-Jan-16 00:14:58] [trace] [  JLink] - JLINK_HasError()  
[2023-Jan-16 00:14:58] [trace] [  JLink] - JLINK_CORESIGHT_ReadAPDPReg(AP reg 0x03)  
[2023-Jan-16 00:14:58] [trace] [  JLink] - Value=0x02880000
[2023-Jan-16 00:14:58] [trace] [  JLink] - - 0.306ms returns 0  
[2023-Jan-16 00:14:58] [trace] [  JLink] - JLINK_HasError()  
[2023-Jan-16 00:14:58] [debug] [SeggerBackend] - read_access_port_register
[2023-Jan-16 00:14:58] [debug] [SeggerBackend] - ---just_read_access_port_register
[2023-Jan-16 00:14:58] [debug] [SeggerBackend] - ---just_select_access_port_register
[2023-Jan-16 00:14:58] [trace] [  JLink] - JLINK_CORESIGHT_ReadAPDPReg(AP reg 0x03)  
[2023-Jan-16 00:14:58] [trace] [  JLink] - Value=0x02880000
[2023-Jan-16 00:14:58] [trace] [  JLink] - - 0.256ms returns 0  
[2023-Jan-16 00:14:58] [trace] [  JLink] - JLINK_HasError()  
[2023-Jan-16 00:14:58] [debug] [SeggerBackend] - read_access_port_register
[2023-Jan-16 00:14:58] [debug] [SeggerBackend] - ---just_read_access_port_register
[2023-Jan-16 00:14:58] [debug] [SeggerBackend] - ---just_select_access_port_register
[2023-Jan-16 00:14:58] [trace] [  JLink] - JLINK_CORESIGHT_ReadAPDPReg(AP reg 0x03)  
[2023-Jan-16 00:14:58] [trace] [  JLink] - Value=0x02880000
[2023-Jan-16 00:14:58] [trace] [  JLink] - - 0.303ms returns 0  
[2023-Jan-16 00:14:58] [trace] [  JLink] - JLINK_HasError()  
[2023-Jan-16 00:14:58] [debug] [SeggerBackend] - read_access_port_register
[2023-Jan-16 00:14:58] [debug] [SeggerBackend] - ---just_read_access_port_register
[2023-Jan-16 00:14:58] [debug] [SeggerBackend] - ---just_select_access_port_register
[2023-Jan-16 00:14:58] [trace] [  JLink] - JLINK_CORESIGHT_ReadAPDPReg(AP reg 0x03)  
[2023-Jan-16 00:14:58] [trace] [  JLink] - Value=0x02880000
[2023-Jan-16 00:14:58] [trace] [  JLink] - - 0.253ms returns 0  
[2023-Jan-16 00:14:58] [trace] [  JLink] - JLINK_HasError()  
[2023-Jan-16 00:14:58] [debug] [SeggerBackend] - read_access_port_register
[2023-Jan-16 00:14:58] [debug] [SeggerBackend] - ---just_read_access_port_register
[2023-Jan-16 00:14:58] [debug] [SeggerBackend] - ---just_select_access_port_register
[2023-Jan-16 00:14:58] [debug] [SeggerBackend] - Select AP 1, DP Bank 0, AP Bank 0
[2023-Jan-16 00:14:58] [trace] [  JLink] - JLINK_CORESIGHT_WriteAPDPReg(DP reg 0x02, 0x01000000)  
[2023-Jan-16 00:14:58] [trace] [  JLink] - - 0.228ms returns 0  
[2023-Jan-16 00:14:58] [trace] [  JLink] - JLINK_HasError()  
[2023-Jan-16 00:14:58] [trace] [  JLink] - JLINK_CORESIGHT_ReadAPDPReg(AP reg 0x03)  
[2023-Jan-16 00:14:58] [trace] [  JLink] - Value=0x00000001
[2023-Jan-16 00:14:58] [trace] [  JLink] - - 0.253ms returns 0  
[2023-Jan-16 00:14:58] [trace] [  JLink] - JLINK_HasError()  
[2023-Jan-16 00:14:58] [debug] [SeggerBackend] - read_access_port_register
[2023-Jan-16 00:14:58] [debug] [SeggerBackend] - ---just_read_access_port_register
[2023-Jan-16 00:14:58] [debug] [SeggerBackend] - ---just_select_access_port_register
[2023-Jan-16 00:14:58] [trace] [  JLink] - JLINK_CORESIGHT_ReadAPDPReg(AP reg 0x03)  
[2023-Jan-16 00:14:58] [trace] [  JLink] - Value=0x00000001
[2023-Jan-16 00:14:58] [trace] [  JLink] - - 0.230ms returns 0  
[2023-Jan-16 00:14:58] [trace] [  JLink] - JLINK_HasError()  
[2023-Jan-16 00:14:58] [debug] [SeggerBackend] - read_access_port_register
[2023-Jan-16 00:14:58] [debug] [SeggerBackend] - ---just_read_access_port_register
[2023-Jan-16 00:14:58] [debug] [SeggerBackend] - ---just_select_access_port_register
[2023-Jan-16 00:14:58] [trace] [  JLink] - JLINK_CORESIGHT_ReadAPDPReg(AP reg 0x03)  
[2023-Jan-16 00:14:58] [trace] [  JLink] - Value=0x00000001
[2023-Jan-16 00:14:58] [trace] [  JLink] - - 0.222ms returns 0  
[2023-Jan-16 00:14:58] [trace] [  JLink] - JLINK_HasError()  
[2023-Jan-16 00:14:58] [debug] [SeggerBackend] - read_access_port_register
[2023-Jan-16 00:14:58] [debug] [SeggerBackend] - ---just_read_access_port_register
[2023-Jan-16 00:14:58] [debug] [SeggerBackend] - ---just_select_access_port_register
[2023-Jan-16 00:14:58] [trace] [  JLink] - JLINK_CORESIGHT_ReadAPDPReg(AP reg 0x03)  
[2023-Jan-16 00:14:58] [trace] [  JLink] - Value=0x00000001
[2023-Jan-16 00:14:58] [trace] [  JLink] - - 0.251ms returns 0  
[2023-Jan-16 00:14:58] [trace] [  JLink] - JLINK_HasError()  
[2023-Jan-16 00:14:58] [ info] [  nRF52] - Protection status read as NONE
[2023-Jan-16 00:14:58] [debug] [SeggerBackend] - read_u32
[2023-Jan-16 00:14:58] [debug] [SeggerBackend] - ---just_connect_to_device
[2023-Jan-16 00:14:58] [debug] [SeggerBackend] - is_connected_to_device
[2023-Jan-16 00:14:58] [trace] [  JLink] - JLINK_IsConnected()  
[2023-Jan-16 00:14:58] [trace] [  JLink] - - 0.003ms returns FALSE  
[2023-Jan-16 00:14:58] [trace] [  JLink] - JLINK_HasError()  
[2023-Jan-16 00:14:58] [debug] [SeggerBackend] - ---set_coresight_ahb_ap_index
[2023-Jan-16 00:14:58] [trace] [  JLink] - JLINK_ExecCommand("CORESIGHT_SetIndexAHBAPToUse = 0", ...).   
[2023-Jan-16 00:14:58] [trace] [  JLink] - - 0.014ms returns 0x00  
[2023-Jan-16 00:14:58] [trace] [  JLink] - JLINK_HasError()  
[2023-Jan-16 00:14:58] [trace] [  JLink] - JLINK_ExecCommand("device = nRF52", ...).   
[2023-Jan-16 00:14:58] [trace] [  JLink] - Device "NRF52" selected.
[2023-Jan-16 00:14:58] [trace] [  JLink] - Device "NRF52" selected.
[2023-Jan-16 00:14:58] [trace] [  JLink] - - 0.554ms returns 0x00  
[2023-Jan-16 00:14:58] [trace] [  JLink] - JLINK_HasError()  
[2023-Jan-16 00:14:58] [trace] [  JLink] - JLINK_Connect()  
[2023-Jan-16 00:14:58] [trace] [  JLink] - InitTarget() start
[2023-Jan-16 00:14:58] [trace] [  JLink] - InitTarget() start
[2023-Jan-16 00:14:58] [trace] [  JLink] -  J-Link Script File: Executing InitTarget() 
[2023-Jan-16 00:14:58] [trace] [  JLink] - InitTarget() end
[2023-Jan-16 00:14:58] [trace] [  JLink] - InitTarget() end
[2023-Jan-16 00:14:58] [trace] [  JLink] - Found SW-DP with ID 0x2BA01477
[2023-Jan-16 00:14:58] [trace] [  JLink] - Found SW-DP with ID 0x2BA01477
[2023-Jan-16 00:14:58] [trace] [  JLink] - DPIDR: 0x2BA01477
[2023-Jan-16 00:14:58] [trace] [  JLink] - DPIDR: 0x2BA01477
[2023-Jan-16 00:14:58] [trace] [  JLink] - CoreSight SoC-400 or earlier
[2023-Jan-16 00:14:58] [trace] [  JLink] - CoreSight SoC-400 or earlier
[2023-Jan-16 00:14:58] [trace] [  JLink] - AP map detection skipped. Manually configured AP map found.
[2023-Jan-16 00:14:58] [trace] [  JLink] - AP map detection skipped. Manually configured AP map found.
[2023-Jan-16 00:14:58] [trace] [  JLink] - AP[0]: AHB-AP (IDR: Not set)
[2023-Jan-16 00:14:58] [trace] [  JLink] - AP[0]: AHB-AP (IDR: Not set)
[2023-Jan-16 00:14:58] [trace] [  JLink] - AP[0]: Core found
[2023-Jan-16 00:14:58] [trace] [  JLink] - AP[0]: Core found
[2023-Jan-16 00:14:58] [trace] [  JLink] - AP[0]: AHB-AP ROM base: 0xE00FF000
[2023-Jan-16 00:14:58] [trace] [  JLink] - AP[0]: AHB-AP ROM base: 0xE00FF000
[2023-Jan-16 00:14:58] [trace] [  JLink] - CPUID register: 0x410FC241. Implementer code: 0x41 (ARM)
[2023-Jan-16 00:14:58] [trace] [  JLink] - CPUID register: 0x410FC241. Implementer code: 0x41 (ARM)
[2023-Jan-16 00:14:58] [trace] [  JLink] - Found Cortex-M4 r0p1, Little endian.
[2023-Jan-16 00:14:58] [trace] [  JLink] - Found Cortex-M4 r0p1, Little endian.
[2023-Jan-16 00:14:58] [trace] [  JLink] - -- Max. mem block: 0x00010C20
[2023-Jan-16 00:14:58] [trace] [  JLink] - CPU_ReadMem(4 bytes @ 0xE000EDF0)
[2023-Jan-16 00:14:58] [trace] [  JLink] - CPU_WriteMem(4 bytes @ 0xE000EDF0)
[2023-Jan-16 00:14:58] [trace] [  JLink] - CPU_ReadMem(4 bytes @ 0xE0002000)
[2023-Jan-16 00:14:58] [trace] [  JLink] - FPUnit: 6 code (BP) slots and 2 literal slots
[2023-Jan-16 00:14:58] [trace] [  JLink] - FPUnit: 6 code (BP) slots and 2 literal slots
[2023-Jan-16 00:14:58] [trace] [  JLink] - CPU_ReadMem(4 bytes @ 0xE000EDFC)
[2023-Jan-16 00:14:58] [trace] [  JLink] - CPU_WriteMem(4 bytes @ 0xE000EDFC)
[2023-Jan-16 00:14:58] [trace] [  JLink] - CPU_ReadMem(4 bytes @ 0xE0001000)
[2023-Jan-16 00:14:58] [trace] [  JLink] - CPU_WriteMem(4 bytes @ 0xE0001000)
[2023-Jan-16 00:14:58] [trace] [  JLink] - CPU_ReadMem(4 bytes @ 0xE000ED88)
[2023-Jan-16 00:14:58] [trace] [  JLink] - CPU_WriteMem(4 bytes @ 0xE000ED88)
[2023-Jan-16 00:14:58] [trace] [  JLink] - CPU_ReadMem(4 bytes @ 0xE000ED88)
[2023-Jan-16 00:14:58] [trace] [  JLink] - CPU_WriteMem(4 bytes @ 0xE000ED88)
[2023-Jan-16 00:14:58] [trace] [  JLink] - CoreSight components:
[2023-Jan-16 00:14:58] [trace] [  JLink] - CoreSight components:
[2023-Jan-16 00:14:58] [trace] [  JLink] - ROMTbl[0] @ E00FF000
[2023-Jan-16 00:14:58] [trace] [  JLink] - ROMTbl[0] @ E00FF000
[2023-Jan-16 00:14:58] [trace] [  JLink] - CPU_ReadMem(64 bytes @ 0xE00FF000)
[2023-Jan-16 00:14:58] [trace] [  JLink] - CPU_ReadMem(32 bytes @ 0xE000EFE0)
[2023-Jan-16 00:14:58] [trace] [  JLink] - [0][0]: E000E000 CID B105E00D PID 000BB000 SCS
[2023-Jan-16 00:14:58] [trace] [  JLink] - [0][0]: E000E000 CID B105E00D PID 000BB000 SCS
[2023-Jan-16 00:14:58] [trace] [  JLink] - CPU_ReadMem(32 bytes @ 0xE0001FE0)
[2023-Jan-16 00:14:58] [trace] [ Client] - Command read_device_info executed for 129 milliseconds with result 0
[2023-Jan-16 00:14:58] [debug] [ Client] - read_memory_descriptors
[2023-Jan-16 00:14:58] [trace] [  JLink] - [0][1]: E0001000 CID B105E00D PID 003BB002 DWT
[2023-Jan-16 00:14:58] [trace] [  JLink] - [0][1]: E0001000 CID B105E00D PID 003BB002 DWT
[2023-Jan-16 00:14:58] [trace] [  JLink] - CPU_ReadMem(32 bytes @ 0xE0002FE0)
[2023-Jan-16 00:14:58] [trace] [  JLink] - [0][2]: E0002000 CID B105E00D PID 002BB003 FPB
[2023-Jan-16 00:14:58] [trace] [  JLink] - [0][2]: E0002000 CID B105E00D PID 002BB003 FPB
[2023-Jan-16 00:14:58] [trace] [  JLink] - - 119.713ms returns 0x00  
[2023-Jan-16 00:14:58] [trace] [  JLink] - JLINK_HasError()  
[2023-Jan-16 00:14:58] [trace] [  JLink] - JLINK_CORE_GetFound()  
[2023-Jan-16 00:14:58] [trace] [  JLink] - - 0.003ms returns 0xE0000FF  
[2023-Jan-16 00:14:58] [debug] [SeggerBackend] - ---just_read_u32
[2023-Jan-16 00:14:58] [debug] [SeggerBackend] - ---just_invalidate_cache
[2023-Jan-16 00:14:58] [trace] [  JLink] - JLINK_ExecCommand("InvalidateCache", ...).   
[2023-Jan-16 00:14:58] [trace] [  JLink] - - 0.547ms returns 0x00  
[2023-Jan-16 00:14:58] [trace] [  JLink] - JLINK_HasError()  
[2023-Jan-16 00:14:58] [trace] [  JLink] - JLINK_ReadMemU32(0x10000130, 0x1 Items)  
[2023-Jan-16 00:14:58] [trace] [  JLink] - CPU_ReadMem(4 bytes @ 0x10000130)
[2023-Jan-16 00:14:58] [trace] [  JLink] - Data:  0A 00 00 00
[2023-Jan-16 00:14:58] [trace] [  JLink] - - 0.447ms returns 1 (0x1)  
[2023-Jan-16 00:14:58] [trace] [  JLink] - JLINK_HasError()  
[2023-Jan-16 00:14:58] [debug] [SeggerBackend] - read_u32
[2023-Jan-16 00:14:58] [debug] [SeggerBackend] - ---just_connect_to_device
[2023-Jan-16 00:14:58] [debug] [SeggerBackend] - is_connected_to_device
[2023-Jan-16 00:14:58] [debug] [SeggerBackend] - ---just_read_u32
[2023-Jan-16 00:14:58] [debug] [SeggerBackend] - ---just_invalidate_cache
[2023-Jan-16 00:14:58] [trace] [  JLink] - JLINK_ExecCommand("InvalidateCache", ...).   
[2023-Jan-16 00:14:58] [trace] [  JLink] - - 0.004ms returns 0x00  
[2023-Jan-16 00:14:58] [trace] [  JLink] - JLINK_HasError()  
[2023-Jan-16 00:14:58] [trace] [  JLink] - JLINK_ReadMemU32(0x10000134, 0x1 Items)  
[2023-Jan-16 00:14:58] [trace] [  JLink] - CPU_ReadMem(4 bytes @ 0x10000134)
[2023-Jan-16 00:14:58] [trace] [  JLink] - Data:  01 00 00 00
[2023-Jan-16 00:14:58] [trace] [  JLink] - - 0.380ms returns 1 (0x1)  
[2023-Jan-16 00:14:58] [trace] [  JLink] - JLINK_HasError()  
[2023-Jan-16 00:14:58] [debug] [  nRF52] - Just_decode_device_version
[2023-Jan-16 00:14:58] [debug] [  nRF52] - Device identified as NRF52810_xxAA_REV2
[2023-Jan-16 00:14:58] [trace] [  JLink] - - 0.173ms  
[2023-Jan-16 00:14:58] [trace] [ Worker] - Command read_device_info executed for 127 milliseconds with result 0
[2023-Jan-16 00:14:58] [debug] [  nRF52] - read_memory_descriptors
[2023-Jan-16 00:14:58] [debug] [SeggerBackend] - is_connected_to_emu
[2023-Jan-16 00:14:58] [trace] [  JLink] - JLINK_IsOpen()  
[2023-Jan-16 00:14:58] [trace] [  JLink] - - 0.020ms returns 0x01  
[2023-Jan-16 00:14:58] [trace] [  JLink] - JLINK_HasError()  
[2023-Jan-16 00:14:58] [trace] [  JLink] - JLINK_Lock()  
[2023-Jan-16 00:14:58] [debug] [  nRF52] - Just_read_memory_descriptors
[2023-Jan-16 00:14:58] [debug] [  nRF52] - Just_readback_status
[2023-Jan-16 00:14:58] [debug] [  nRF52] - Just_is_ctrl_ap_available
[2023-Jan-16 00:14:58] [debug] [SeggerBackend] - read_access_port_register
[2023-Jan-16 00:14:58] [debug] [SeggerBackend] - ---just_read_access_port_register
[2023-Jan-16 00:14:58] [debug] [SeggerBackend] - ---just_is_debug_region_powered
[2023-Jan-16 00:14:58] [debug] [SeggerBackend] - ---just_read_debug_port_register
[2023-Jan-16 00:14:58] [debug] [SeggerBackend] - ---just_select_debug_port_register
[2023-Jan-16 00:14:58] [debug] [SeggerBackend] - Select AP 255, DP Bank 0, AP Bank 255
[2023-Jan-16 00:14:58] [trace] [  JLink] - JLINK_CORESIGHT_WriteAPDPReg(DP reg 0x02, 0x00000000)  
[2023-Jan-16 00:14:58] [trace] [  JLink] - - 0.359ms returns 0  
[2023-Jan-16 00:14:58] [trace] [  JLink] - JLINK_HasError()  
[2023-Jan-16 00:14:58] [trace] [  JLink] - JLINK_CORESIGHT_ReadAPDPReg(DP reg 0x01)  
[2023-Jan-16 00:14:58] [trace] [  JLink] - Value=0xF0000040
[2023-Jan-16 00:14:58] [trace] [  JLink] - - 0.230ms returns 0  
[2023-Jan-16 00:14:58] [trace] [  JLink] - JLINK_HasError()  
[2023-Jan-16 00:14:58] [debug] [SeggerBackend] - ---just_select_access_port_register
[2023-Jan-16 00:14:58] [debug] [SeggerBackend] - Select AP 1, DP Bank 0, AP Bank 15
[2023-Jan-16 00:14:58] [trace] [  JLink] - JLINK_CORESIGHT_WriteAPDPReg(DP reg 0x02, 0x010000F0)  
[2023-Jan-16 00:14:58] [trace] [  JLink] - - 0.228ms returns 0  
[2023-Jan-16 00:14:58] [trace] [  JLink] - JLINK_HasError()  
[2023-Jan-16 00:14:58] [trace] [  JLink] - JLINK_CORESIGHT_ReadAPDPReg(AP reg 0x03)  
[2023-Jan-16 00:14:58] [trace] [  JLink] - Value=0x02880000
[2023-Jan-16 00:14:58] [trace] [  JLink] - - 0.321ms returns 0  
[2023-Jan-16 00:14:58] [trace] [  JLink] - JLINK_HasError()  
[2023-Jan-16 00:14:58] [debug] [SeggerBackend] - read_access_port_register
[2023-Jan-16 00:14:58] [debug] [SeggerBackend] - ---just_read_access_port_register
[2023-Jan-16 00:14:58] [debug] [SeggerBackend] - ---just_select_access_port_register
[2023-Jan-16 00:14:58] [trace] [  JLink] - JLINK_CORESIGHT_ReadAPDPReg(AP reg 0x03)  
[2023-Jan-16 00:14:58] [trace] [  JLink] - Value=0x02880000
[2023-Jan-16 00:14:58] [trace] [  JLink] - - 0.329ms returns 0  
[2023-Jan-16 00:14:58] [trace] [  JLink] - JLINK_HasError()  
[2023-Jan-16 00:14:58] [debug] [SeggerBackend] - read_access_port_register
[2023-Jan-16 00:14:58] [debug] [SeggerBackend] - ---just_read_access_port_register
[2023-Jan-16 00:14:58] [debug] [SeggerBackend] - ---just_select_access_port_register
[2023-Jan-16 00:14:58] [trace] [  JLink] - JLINK_CORESIGHT_ReadAPDPReg(AP reg 0x03)  
[2023-Jan-16 00:14:58] [trace] [  JLink] - Value=0x02880000
[2023-Jan-16 00:14:58] [trace] [  JLink] - - 0.279ms returns 0  
[2023-Jan-16 00:14:58] [trace] [ Client] - Command read_memory_descriptors executed for 7 milliseconds with result 0
[2023-Jan-16 00:14:58] [trace] [  JLink] - JLINK_HasError()  
[2023-Jan-16 00:14:58] [debug] [SeggerBackend] - read_access_port_register
[2023-Jan-16 00:14:58] [debug] [SeggerBackend] - ---just_read_access_port_register
[2023-Jan-16 00:14:58] [debug] [SeggerBackend] - ---just_select_access_port_register
[2023-Jan-16 00:14:58] [debug] [ Client] - read_memory_descriptors
[2023-Jan-16 00:14:58] [trace] [  JLink] - JLINK_CORESIGHT_ReadAPDPReg(AP reg 0x03)  
[2023-Jan-16 00:14:58] [trace] [  JLink] - Value=0x02880000
[2023-Jan-16 00:14:58] [trace] [  JLink] - - 0.366ms returns 0  
[2023-Jan-16 00:14:58] [trace] [  JLink] - JLINK_HasError()  
[2023-Jan-16 00:14:58] [debug] [SeggerBackend] - read_access_port_register
[2023-Jan-16 00:14:58] [debug] [SeggerBackend] - ---just_read_access_port_register
[2023-Jan-16 00:14:58] [debug] [SeggerBackend] - ---just_select_access_port_register
[2023-Jan-16 00:14:58] [debug] [SeggerBackend] - Select AP 1, DP Bank 0, AP Bank 0
[2023-Jan-16 00:14:58] [trace] [  JLink] - JLINK_CORESIGHT_WriteAPDPReg(DP reg 0x02, 0x01000000)  
[2023-Jan-16 00:14:58] [trace] [  JLink] - - 0.233ms returns 0  
[2023-Jan-16 00:14:58] [trace] [  JLink] - JLINK_HasError()  
[2023-Jan-16 00:14:58] [trace] [  JLink] - JLINK_CORESIGHT_ReadAPDPReg(AP reg 0x03)  
[2023-Jan-16 00:14:58] [trace] [  JLink] - Value=0x00000001
[2023-Jan-16 00:14:58] [trace] [  JLink] - - 0.294ms returns 0  
[2023-Jan-16 00:14:58] [trace] [  JLink] - JLINK_HasError()  
[2023-Jan-16 00:14:58] [debug] [SeggerBackend] - read_access_port_register
[2023-Jan-16 00:14:58] [debug] [SeggerBackend] - ---just_read_access_port_register
[2023-Jan-16 00:14:58] [debug] [SeggerBackend] - ---just_select_access_port_register
[2023-Jan-16 00:14:58] [trace] [  JLink] - JLINK_CORESIGHT_ReadAPDPReg(AP reg 0x03)  
[2023-Jan-16 00:14:58] [trace] [  JLink] - Value=0x00000001
[2023-Jan-16 00:14:58] [trace] [  JLink] - - 0.277ms returns 0  
[2023-Jan-16 00:14:58] [trace] [  JLink] - JLINK_HasError()  
[2023-Jan-16 00:14:58] [debug] [SeggerBackend] - read_access_port_register
[2023-Jan-16 00:14:58] [debug] [SeggerBackend] - ---just_read_access_port_register
[2023-Jan-16 00:14:58] [debug] [SeggerBackend] - ---just_select_access_port_register
[2023-Jan-16 00:14:58] [trace] [  JLink] - JLINK_CORESIGHT_ReadAPDPReg(AP reg 0x03)  
[2023-Jan-16 00:14:58] [trace] [  JLink] - Value=0x00000001
[2023-Jan-16 00:14:58] [trace] [  JLink] - - 0.248ms returns 0  
[2023-Jan-16 00:14:58] [trace] [  JLink] - JLINK_HasError()  
[2023-Jan-16 00:14:58] [debug] [SeggerBackend] - read_access_port_register
[2023-Jan-16 00:14:58] [debug] [SeggerBackend] - ---just_read_access_port_register
[2023-Jan-16 00:14:58] [debug] [SeggerBackend] - ---just_select_access_port_register
[2023-Jan-16 00:14:58] [trace] [  JLink] - JLINK_CORESIGHT_ReadAPDPReg(AP reg 0x03)  
[2023-Jan-16 00:14:58] [trace] [  JLink] - Value=0x00000001
[2023-Jan-16 00:14:58] [trace] [  JLink] - - 0.262ms returns 0  
[2023-Jan-16 00:14:58] [trace] [  JLink] - JLINK_HasError()  
[2023-Jan-16 00:14:58] [ info] [  nRF52] - Protection status read as NONE
[2023-Jan-16 00:14:58] [debug] [  nRF52] - update_device_memory_list
[2023-Jan-16 00:14:58] [debug] [  nRF52] - Just_read_device_version
[2023-Jan-16 00:14:58] [debug] [  nRF52] - Just_readback_status
[2023-Jan-16 00:14:58] [debug] [  nRF52] - Just_is_ctrl_ap_available
[2023-Jan-16 00:14:58] [debug] [SeggerBackend] - read_access_port_register
[2023-Jan-16 00:14:58] [debug] [SeggerBackend] - ---just_read_access_port_register
[2023-Jan-16 00:14:58] [debug] [SeggerBackend] - ---just_select_access_port_register
[2023-Jan-16 00:14:58] [debug] [SeggerBackend] - Select AP 1, DP Bank 0, AP Bank 15
[2023-Jan-16 00:14:58] [trace] [  JLink] - JLINK_CORESIGHT_WriteAPDPReg(DP reg 0x02, 0x010000F0)  
[2023-Jan-16 00:14:58] [trace] [  JLink] - - 0.215ms returns 0  
[2023-Jan-16 00:14:58] [trace] [  JLink] - JLINK_HasError()  
[2023-Jan-16 00:14:58] [trace] [  JLink] - JLINK_CORESIGHT_ReadAPDPReg(AP reg 0x03)  
[2023-Jan-16 00:14:58] [trace] [  JLink] - Value=0x02880000
[2023-Jan-16 00:14:58] [trace] [  JLink] - - 0.276ms returns 0  
[2023-Jan-16 00:14:58] [trace] [  JLink] - JLINK_HasError()  
[2023-Jan-16 00:14:58] [debug] [SeggerBackend] - read_access_port_register
[2023-Jan-16 00:14:58] [debug] [SeggerBackend] - ---just_read_access_port_register
[2023-Jan-16 00:14:58] [debug] [SeggerBackend] - ---just_select_access_port_register
[2023-Jan-16 00:14:58] [trace] [  JLink] - JLINK_CORESIGHT_ReadAPDPReg(AP reg 0x03)  
[2023-Jan-16 00:14:58] [trace] [  JLink] - Value=0x02880000
[2023-Jan-16 00:14:58] [trace] [  JLink] - - 0.253ms returns 0  
[2023-Jan-16 00:14:58] [trace] [  JLink] - JLINK_HasError()  
[2023-Jan-16 00:14:58] [debug] [SeggerBackend] - read_access_port_register
[2023-Jan-16 00:14:58] [debug] [SeggerBackend] - ---just_read_access_port_register
[2023-Jan-16 00:14:58] [debug] [SeggerBackend] - ---just_select_access_port_register
[2023-Jan-16 00:14:58] [trace] [  JLink] - JLINK_CORESIGHT_ReadAPDPReg(AP reg 0x03)  
[2023-Jan-16 00:14:58] [trace] [  JLink] - Value=0x02880000
[2023-Jan-16 00:14:58] [trace] [  JLink] - - 0.233ms returns 0  
[2023-Jan-16 00:14:58] [trace] [  JLink] - JLINK_HasError()  
[2023-Jan-16 00:14:58] [debug] [SeggerBackend] - read_access_port_register
[2023-Jan-16 00:14:58] [debug] [SeggerBackend] - ---just_read_access_port_register
[2023-Jan-16 00:14:58] [debug] [SeggerBackend] - ---just_select_access_port_register
[2023-Jan-16 00:14:58] [trace] [  JLink] - JLINK_CORESIGHT_ReadAPDPReg(AP reg 0x03)  
[2023-Jan-16 00:14:58] [trace] [  JLink] - Value=0x02880000
[2023-Jan-16 00:14:58] [trace] [  JLink] - - 0.224ms returns 0  
[2023-Jan-16 00:14:58] [trace] [  JLink] - JLINK_HasError()  
[2023-Jan-16 00:14:58] [debug] [SeggerBackend] - read_access_port_register
[2023-Jan-16 00:14:58] [debug] [SeggerBackend] - ---just_read_access_port_register
[2023-Jan-16 00:14:58] [debug] [SeggerBackend] - ---just_select_access_port_register
[2023-Jan-16 00:14:58] [debug] [SeggerBackend] - Select AP 1, DP Bank 0, AP Bank 0
[2023-Jan-16 00:14:58] [trace] [  JLink] - JLINK_CORESIGHT_WriteAPDPReg(DP reg 0x02, 0x01000000)  
[2023-Jan-16 00:14:58] [trace] [  JLink] - - 0.209ms returns 0  
[2023-Jan-16 00:14:58] [trace] [  JLink] - JLINK_HasError()  
[2023-Jan-16 00:14:58] [trace] [  JLink] - JLINK_CORESIGHT_ReadAPDPReg(AP reg 0x03)  
[2023-Jan-16 00:14:58] [trace] [  JLink] - Value=0x00000001
[2023-Jan-16 00:14:58] [trace] [  JLink] - - 0.246ms returns 0  
[2023-Jan-16 00:14:58] [trace] [  JLink] - JLINK_HasError()  
[2023-Jan-16 00:14:58] [debug] [SeggerBackend] - read_access_port_register
[2023-Jan-16 00:14:58] [debug] [SeggerBackend] - ---just_read_access_port_register
[2023-Jan-16 00:14:58] [debug] [SeggerBackend] - ---just_select_access_port_register
[2023-Jan-16 00:14:58] [trace] [  JLink] - JLINK_CORESIGHT_ReadAPDPReg(AP reg 0x03)  
[2023-Jan-16 00:14:58] [trace] [  JLink] - Value=0x00000001
[2023-Jan-16 00:14:58] [trace] [  JLink] - - 0.224ms returns 0  
[2023-Jan-16 00:14:58] [trace] [  JLink] - JLINK_HasError()  
[2023-Jan-16 00:14:58] [debug] [SeggerBackend] - read_access_port_register
[2023-Jan-16 00:14:58] [debug] [SeggerBackend] - ---just_read_access_port_register
[2023-Jan-16 00:14:58] [debug] [SeggerBackend] - ---just_select_access_port_register
[2023-Jan-16 00:14:58] [trace] [  JLink] - JLINK_CORESIGHT_ReadAPDPReg(AP reg 0x03)  
[2023-Jan-16 00:14:58] [trace] [  JLink] - Value=0x00000001
[2023-Jan-16 00:14:58] [trace] [  JLink] - - 0.236ms returns 0  
[2023-Jan-16 00:14:58] [trace] [  JLink] - JLINK_HasError()  
[2023-Jan-16 00:14:58] [debug] [SeggerBackend] - read_access_port_register
[2023-Jan-16 00:14:58] [debug] [SeggerBackend] - ---just_read_access_port_register
[2023-Jan-16 00:14:58] [debug] [SeggerBackend] - ---just_select_access_port_register
[2023-Jan-16 00:14:58] [trace] [  JLink] - JLINK_CORESIGHT_ReadAPDPReg(AP reg 0x03)  
[2023-Jan-16 00:14:58] [trace] [  JLink] - Value=0x00000001
[2023-Jan-16 00:14:58] [trace] [  JLink] - - 0.236ms returns 0  
[2023-Jan-16 00:14:58] [trace] [  JLink] - JLINK_HasError()  
[2023-Jan-16 00:14:58] [ info] [  nRF52] - Protection status read as NONE
[2023-Jan-16 00:14:58] [debug] [SeggerBackend] - read_u32
[2023-Jan-16 00:14:58] [debug] [SeggerBackend] - ---just_connect_to_device
[2023-Jan-16 00:14:58] [debug] [SeggerBackend] - is_connected_to_device
[2023-Jan-16 00:14:58] [trace] [  JLink] - JLINK_IsConnected()  
[2023-Jan-16 00:14:58] [trace] [  JLink] - - 0.003ms returns TRUE  
[2023-Jan-16 00:14:58] [trace] [  JLink] - JLINK_HasError()  
[2023-Jan-16 00:14:58] [debug] [SeggerBackend] - ---just_read_u32
[2023-Jan-16 00:14:58] [debug] [SeggerBackend] - ---just_invalidate_cache
[2023-Jan-16 00:14:58] [trace] [  JLink] - JLINK_ExecCommand("InvalidateCache", ...).   
[2023-Jan-16 00:14:58] [trace] [  JLink] - - 0.004ms returns 0x00  
[2023-Jan-16 00:14:58] [trace] [  JLink] - JLINK_HasError()  
[2023-Jan-16 00:14:58] [trace] [  JLink] - JLINK_ReadMemU32(0x10000130, 0x1 Items)  
[2023-Jan-16 00:14:58] [trace] [  JLink] - CPU_ReadMem(4 bytes @ 0x10000130)
[2023-Jan-16 00:14:58] [trace] [  JLink] - Data:  0A 00 00 00
[2023-Jan-16 00:14:58] [trace] [  JLink] - - 0.341ms returns 1 (0x1)  
[2023-Jan-16 00:14:58] [trace] [  JLink] - JLINK_HasError()  
[2023-Jan-16 00:14:58] [debug] [SeggerBackend] - read_u32
[2023-Jan-16 00:14:58] [debug] [SeggerBackend] - ---just_connect_to_device
[2023-Jan-16 00:14:58] [debug] [SeggerBackend] - is_connected_to_device
[2023-Jan-16 00:14:58] [debug] [SeggerBackend] - ---just_read_u32
[2023-Jan-16 00:14:58] [debug] [SeggerBackend] - ---just_invalidate_cache
[2023-Jan-16 00:14:58] [trace] [  JLink] - JLINK_ExecCommand("InvalidateCache", ...).   
[2023-Jan-16 00:14:58] [trace] [  JLink] - - 0.004ms returns 0x00  
[2023-Jan-16 00:14:58] [trace] [  JLink] - JLINK_HasError()  
[2023-Jan-16 00:14:58] [trace] [  JLink] - JLINK_ReadMemU32(0x10000134, 0x1 Items)  
[2023-Jan-16 00:14:58] [trace] [  JLink] - CPU_ReadMem(4 bytes @ 0x10000134)
[2023-Jan-16 00:14:58] [trace] [  JLink] - Data:  01 00 00 00
[2023-Jan-16 00:14:58] [trace] [  JLink] - - 0.391ms returns 1 (0x1)  
[2023-Jan-16 00:14:58] [trace] [  JLink] - JLINK_HasError()  
[2023-Jan-16 00:14:58] [debug] [  nRF52] - Just_decode_device_version
[2023-Jan-16 00:14:58] [debug] [  nRF52] - Device identified as NRF52810_xxAA_REV2
[2023-Jan-16 00:14:58] [debug] [  nRF52] - Read memory description from family DLL: "Flash" [0x00000000-0x00030000] 48 pages (48x4kB) static ID0
[2023-Jan-16 00:14:58] [debug] [  nRF52] - Read memory description from family DLL: "Code RAM" [0x00800000-0x00806000] 6 pages (6x4kB) static ID8388608
[2023-Jan-16 00:14:58] [debug] [  nRF52] - Read memory description from family DLL: "FICR" [0x10000000-0x10001000] 1 pages (1x4kB) static ID268435456
[2023-Jan-16 00:14:58] [debug] [  nRF52] - Read memory description from family DLL: "UICR" [0x10001000-0x10002000] 1 pages (1x4kB) static ID268439552
[2023-Jan-16 00:14:58] [debug] [  nRF52] - Read memory description from family DLL: "RAM" [0x20000000-0x20006000] 6 pages (6x4kB) static ID536870912
[2023-Jan-16 00:14:58] [trace] [  JLink] - - 0.676ms  
[2023-Jan-16 00:14:58] [trace] [ Worker] - Command read_memory_descriptors executed for 7 milliseconds with result 0
[2023-Jan-16 00:14:58] [debug] [  nRF52] - read_memory_descriptors
[2023-Jan-16 00:14:58] [debug] [SeggerBackend] - is_connected_to_emu
[2023-Jan-16 00:14:58] [trace] [  JLink] - JLINK_IsOpen()  
[2023-Jan-16 00:14:58] [trace] [  JLink] - - 0.004ms returns 0x01  
[2023-Jan-16 00:14:58] [trace] [  JLink] - JLINK_HasError()  
[2023-Jan-16 00:14:58] [trace] [  JLink] - JLINK_Lock()  
[2023-Jan-16 00:14:58] [debug] [  nRF52] - Just_read_memory_descriptors
[2023-Jan-16 00:14:58] [debug] [  nRF52] - Just_readback_status
[2023-Jan-16 00:14:58] [debug] [  nRF52] - Just_is_ctrl_ap_available
[2023-Jan-16 00:14:58] [debug] [SeggerBackend] - read_access_port_register
[2023-Jan-16 00:14:58] [debug] [SeggerBackend] - ---just_read_access_port_register
[2023-Jan-16 00:14:58] [debug] [SeggerBackend] - ---just_is_debug_region_powered
[2023-Jan-16 00:14:58] [debug] [SeggerBackend] - ---just_read_debug_port_register
[2023-Jan-16 00:14:58] [debug] [SeggerBackend] - ---just_select_debug_port_register
[2023-Jan-16 00:14:58] [debug] [SeggerBackend] - Select AP 255, DP Bank 0, AP Bank 255
[2023-Jan-16 00:14:58] [trace] [  JLink] - JLINK_CORESIGHT_WriteAPDPReg(DP reg 0x02, 0x00000000)  
[2023-Jan-16 00:14:58] [trace] [ Client] - Command read_memory_descriptors executed for 6 milliseconds with result 0
[2023-Jan-16 00:14:58] [debug] [ Client] - read_page_sizes
[2023-Jan-16 00:14:58] [trace] [ Client] - Command read_page_sizes executed for 0 milliseconds with result 0
[2023-Jan-16 00:14:58] [debug] [ Client] - read_page_sizes
[2023-Jan-16 00:14:58] [trace] [ Client] - Command read_page_sizes executed for 0 milliseconds with result 0
[2023-Jan-16 00:14:58] [debug] [ Client] - read_page_sizes
[2023-Jan-16 00:14:58] [trace] [ Client] - Command read_page_sizes executed for 0 milliseconds with result 0
[2023-Jan-16 00:14:58] [debug] [ Client] - read_page_sizes
[2023-Jan-16 00:14:58] [trace] [ Client] - Command read_page_sizes executed for 0 milliseconds with result 0
[2023-Jan-16 00:14:58] [debug] [ Client] - read_page_sizes
[2023-Jan-16 00:14:58] [trace] [ Client] - Command read_page_sizes executed for 0 milliseconds with result 0
[2023-Jan-16 00:14:58] [debug] [ Client] - read_page_sizes
[2023-Jan-16 00:14:58] [trace] [ Client] - Command read_page_sizes executed for 0 milliseconds with result 0
[2023-Jan-16 00:14:58] [debug] [ Client] - read_page_sizes
[2023-Jan-16 00:14:58] [trace] [ Client] - Command read_page_sizes executed for 0 milliseconds with result 0
[2023-Jan-16 00:14:58] [debug] [ Client] - read_page_sizes
[2023-Jan-16 00:14:58] [trace] [ Client] - Command read_page_sizes executed for 0 milliseconds with result 0
[2023-Jan-16 00:14:58] [debug] [ Client] - read_page_sizes
[2023-Jan-16 00:14:58] [trace] [ Client] - Command read_page_sizes executed for 0 milliseconds with result 0
[2023-Jan-16 00:14:58] [debug] [ Client] - read_page_sizes
[2023-Jan-16 00:14:58] [trace] [ Client] - Command read_page_sizes executed for 0 milliseconds with result 0
[2023-Jan-16 00:14:58] [debug] [ Client] - erase
[2023-Jan-16 00:14:58] [trace] [  JLink] - - 0.252ms returns 0  
[2023-Jan-16 00:14:58] [trace] [  JLink] - JLINK_HasError()  
[2023-Jan-16 00:14:58] [trace] [  JLink] - JLINK_CORESIGHT_ReadAPDPReg(DP reg 0x01)  
[2023-Jan-16 00:14:58] [trace] [  JLink] - Value=0xF0000040
[2023-Jan-16 00:14:58] [trace] [  JLink] - - 0.226ms returns 0  
[2023-Jan-16 00:14:58] [trace] [  JLink] - JLINK_HasError()  
[2023-Jan-16 00:14:58] [debug] [SeggerBackend] - ---just_select_access_port_register
[2023-Jan-16 00:14:58] [debug] [SeggerBackend] - Select AP 1, DP Bank 0, AP Bank 15
[2023-Jan-16 00:14:58] [trace] [  JLink] - JLINK_CORESIGHT_WriteAPDPReg(DP reg 0x02, 0x010000F0)  
[2023-Jan-16 00:14:58] [trace] [  JLink] - - 0.189ms returns 0  
[2023-Jan-16 00:14:58] [trace] [  JLink] - JLINK_HasError()  
[2023-Jan-16 00:14:58] [trace] [  JLink] - JLINK_CORESIGHT_ReadAPDPReg(AP reg 0x03)  
[2023-Jan-16 00:14:58] [trace] [  JLink] - Value=0x02880000
[2023-Jan-16 00:14:58] [trace] [  JLink] - - 0.227ms returns 0  
[2023-Jan-16 00:14:58] [trace] [  JLink] - JLINK_HasError()  
[2023-Jan-16 00:14:58] [debug] [SeggerBackend] - read_access_port_register
[2023-Jan-16 00:14:58] [debug] [SeggerBackend] - ---just_read_access_port_register
[2023-Jan-16 00:14:58] [debug] [SeggerBackend] - ---just_select_access_port_register
[2023-Jan-16 00:14:58] [trace] [  JLink] - JLINK_CORESIGHT_ReadAPDPReg(AP reg 0x03)  
[2023-Jan-16 00:14:58] [trace] [  JLink] - Value=0x02880000
[2023-Jan-16 00:14:58] [trace] [  JLink] - - 0.225ms returns 0  
[2023-Jan-16 00:14:58] [trace] [  JLink] - JLINK_HasError()  
[2023-Jan-16 00:14:58] [debug] [SeggerBackend] - read_access_port_register
[2023-Jan-16 00:14:58] [debug] [SeggerBackend] - ---just_read_access_port_register
[2023-Jan-16 00:14:58] [debug] [SeggerBackend] - ---just_select_access_port_register
[2023-Jan-16 00:14:58] [trace] [  JLink] - JLINK_CORESIGHT_ReadAPDPReg(AP reg 0x03)  
[2023-Jan-16 00:14:58] [trace] [  JLink] - Value=0x02880000
[2023-Jan-16 00:14:58] [trace] [  JLink] - - 0.230ms returns 0  
[2023-Jan-16 00:14:58] [trace] [  JLink] - JLINK_HasError()  
[2023-Jan-16 00:14:58] [debug] [SeggerBackend] - read_access_port_register
[2023-Jan-16 00:14:58] [debug] [SeggerBackend] - ---just_read_access_port_register
[2023-Jan-16 00:14:58] [debug] [SeggerBackend] - ---just_select_access_port_register
[2023-Jan-16 00:14:58] [trace] [  JLink] - JLINK_CORESIGHT_ReadAPDPReg(AP reg 0x03)  
[2023-Jan-16 00:14:58] [trace] [  JLink] - Value=0x02880000
[2023-Jan-16 00:14:58] [trace] [  JLink] - - 0.235ms returns 0  
[2023-Jan-16 00:14:58] [trace] [  JLink] - JLINK_HasError()  
[2023-Jan-16 00:14:58] [debug] [SeggerBackend] - read_access_port_register
[2023-Jan-16 00:14:58] [debug] [SeggerBackend] - ---just_read_access_port_register
[2023-Jan-16 00:14:58] [debug] [SeggerBackend] - ---just_select_access_port_register
[2023-Jan-16 00:14:58] [debug] [SeggerBackend] - Select AP 1, DP Bank 0, AP Bank 0
[2023-Jan-16 00:14:58] [trace] [  JLink] - JLINK_CORESIGHT_WriteAPDPReg(DP reg 0x02, 0x01000000)  
[2023-Jan-16 00:14:58] [trace] [  JLink] - - 0.233ms returns 0  
[2023-Jan-16 00:14:58] [trace] [  JLink] - JLINK_HasError()  
[2023-Jan-16 00:14:58] [trace] [  JLink] - JLINK_CORESIGHT_ReadAPDPReg(AP reg 0x03)  
[2023-Jan-16 00:14:58] [trace] [  JLink] - Value=0x00000001
[2023-Jan-16 00:14:58] [trace] [  JLink] - - 0.282ms returns 0  
[2023-Jan-16 00:14:58] [trace] [  JLink] - JLINK_HasError()  
[2023-Jan-16 00:14:58] [debug] [SeggerBackend] - read_access_port_register
[2023-Jan-16 00:14:58] [debug] [SeggerBackend] - ---just_read_access_port_register
[2023-Jan-16 00:14:58] [debug] [SeggerBackend] - ---just_select_access_port_register
[2023-Jan-16 00:14:58] [trace] [  JLink] - JLINK_CORESIGHT_ReadAPDPReg(AP reg 0x03)  
[2023-Jan-16 00:14:58] [trace] [  JLink] - Value=0x00000001
[2023-Jan-16 00:14:58] [trace] [  JLink] - - 0.229ms returns 0  
[2023-Jan-16 00:14:58] [trace] [  JLink] - JLINK_HasError()  
[2023-Jan-16 00:14:58] [debug] [SeggerBackend] - read_access_port_register
[2023-Jan-16 00:14:58] [debug] [SeggerBackend] - ---just_read_access_port_register
[2023-Jan-16 00:14:58] [debug] [SeggerBackend] - ---just_select_access_port_register
[2023-Jan-16 00:14:58] [trace] [  JLink] - JLINK_CORESIGHT_ReadAPDPReg(AP reg 0x03)  
[2023-Jan-16 00:14:58] [trace] [  JLink] - Value=0x00000001
[2023-Jan-16 00:14:58] [trace] [  JLink] - - 0.227ms returns 0  
[2023-Jan-16 00:14:58] [trace] [  JLink] - JLINK_HasError()  
[2023-Jan-16 00:14:58] [debug] [SeggerBackend] - read_access_port_register
[2023-Jan-16 00:14:58] [debug] [SeggerBackend] - ---just_read_access_port_register
[2023-Jan-16 00:14:58] [debug] [SeggerBackend] - ---just_select_access_port_register
[2023-Jan-16 00:14:58] [trace] [  JLink] - JLINK_CORESIGHT_ReadAPDPReg(AP reg 0x03)  
[2023-Jan-16 00:14:58] [trace] [  JLink] - Value=0x00000001
[2023-Jan-16 00:14:58] [trace] [  JLink] - - 0.239ms returns 0  
[2023-Jan-16 00:14:58] [trace] [  JLink] - JLINK_HasError()  
[2023-Jan-16 00:14:58] [ info] [  nRF52] - Protection status read as NONE
[2023-Jan-16 00:14:58] [debug] [  nRF52] - update_device_memory_list
[2023-Jan-16 00:14:58] [debug] [  nRF52] - Just_read_device_version
[2023-Jan-16 00:14:58] [debug] [  nRF52] - Just_readback_status
[2023-Jan-16 00:14:58] [debug] [  nRF52] - Just_is_ctrl_ap_available
[2023-Jan-16 00:14:58] [debug] [SeggerBackend] - read_access_port_register
[2023-Jan-16 00:14:58] [debug] [SeggerBackend] - ---just_read_access_port_register
[2023-Jan-16 00:14:58] [debug] [SeggerBackend] - ---just_select_access_port_register
[2023-Jan-16 00:14:58] [debug] [SeggerBackend] - Select AP 1, DP Bank 0, AP Bank 15
[2023-Jan-16 00:14:58] [trace] [  JLink] - JLINK_CORESIGHT_WriteAPDPReg(DP reg 0x02, 0x010000F0)  
[2023-Jan-16 00:14:58] [trace] [  JLink] - - 0.242ms returns 0  
[2023-Jan-16 00:14:58] [trace] [  JLink] - JLINK_HasError()  
[2023-Jan-16 00:14:58] [trace] [  JLink] - JLINK_CORESIGHT_ReadAPDPReg(AP reg 0x03)  
[2023-Jan-16 00:14:58] [trace] [  JLink] - Value=0x02880000
[2023-Jan-16 00:14:58] [trace] [  JLink] - - 0.231ms returns 0  
[2023-Jan-16 00:14:58] [trace] [  JLink] - JLINK_HasError()  
[2023-Jan-16 00:14:58] [debug] [SeggerBackend] - read_access_port_register
[2023-Jan-16 00:14:58] [debug] [SeggerBackend] - ---just_read_access_port_register
[2023-Jan-16 00:14:58] [debug] [SeggerBackend] - ---just_select_access_port_register
[2023-Jan-16 00:14:58] [trace] [  JLink] - JLINK_CORESIGHT_ReadAPDPReg(AP reg 0x03)  
[2023-Jan-16 00:14:58] [trace] [  JLink] - Value=0x02880000
[2023-Jan-16 00:14:58] [trace] [  JLink] - - 0.227ms returns 0  
[2023-Jan-16 00:14:58] [trace] [  JLink] - JLINK_HasError()  
[2023-Jan-16 00:14:58] [debug] [SeggerBackend] - read_access_port_register
[2023-Jan-16 00:14:58] [debug] [SeggerBackend] - ---just_read_access_port_register
[2023-Jan-16 00:14:58] [debug] [SeggerBackend] - ---just_select_access_port_register
[2023-Jan-16 00:14:58] [trace] [  JLink] - JLINK_CORESIGHT_ReadAPDPReg(AP reg 0x03)  
[2023-Jan-16 00:14:58] [trace] [  JLink] - Value=0x02880000
[2023-Jan-16 00:14:58] [trace] [  JLink] - - 0.223ms returns 0  
[2023-Jan-16 00:14:58] [trace] [  JLink] - JLINK_HasError()  
[2023-Jan-16 00:14:58] [debug] [SeggerBackend] - read_access_port_register
[2023-Jan-16 00:14:58] [debug] [SeggerBackend] - ---just_read_access_port_register
[2023-Jan-16 00:14:58] [debug] [SeggerBackend] - ---just_select_access_port_register
[2023-Jan-16 00:14:58] [trace] [  JLink] - JLINK_CORESIGHT_ReadAPDPReg(AP reg 0x03)  
[2023-Jan-16 00:14:58] [trace] [  JLink] - Value=0x02880000
[2023-Jan-16 00:14:58] [trace] [  JLink] - - 0.268ms returns 0  
[2023-Jan-16 00:14:58] [trace] [  JLink] - JLINK_HasError()  
[2023-Jan-16 00:14:58] [debug] [SeggerBackend] - read_access_port_register
[2023-Jan-16 00:14:58] [debug] [SeggerBackend] - ---just_read_access_port_register
[2023-Jan-16 00:14:58] [debug] [SeggerBackend] - ---just_select_access_port_register
[2023-Jan-16 00:14:58] [debug] [SeggerBackend] - Select AP 1, DP Bank 0, AP Bank 0
[2023-Jan-16 00:14:58] [trace] [  JLink] - JLINK_CORESIGHT_WriteAPDPReg(DP reg 0x02, 0x01000000)  
[2023-Jan-16 00:14:58] [trace] [  JLink] - - 0.239ms returns 0  
[2023-Jan-16 00:14:58] [trace] [  JLink] - JLINK_HasError()  
[2023-Jan-16 00:14:58] [trace] [  JLink] - JLINK_CORESIGHT_ReadAPDPReg(AP reg 0x03)  
[2023-Jan-16 00:14:58] [trace] [  JLink] - Value=0x00000001
[2023-Jan-16 00:14:58] [trace] [  JLink] - - 0.318ms returns 0  
[2023-Jan-16 00:14:58] [trace] [  JLink] - JLINK_HasError()  
[2023-Jan-16 00:14:58] [debug] [SeggerBackend] - read_access_port_register
[2023-Jan-16 00:14:58] [debug] [SeggerBackend] - ---just_read_access_port_register
[2023-Jan-16 00:14:58] [debug] [SeggerBackend] - ---just_select_access_port_register
[2023-Jan-16 00:14:58] [trace] [  JLink] - JLINK_CORESIGHT_ReadAPDPReg(AP reg 0x03)  
[2023-Jan-16 00:14:58] [trace] [  JLink] - Value=0x00000001
[2023-Jan-16 00:14:58] [trace] [  JLink] - - 0.250ms returns 0  
[2023-Jan-16 00:14:58] [trace] [  JLink] - JLINK_HasError()  
[2023-Jan-16 00:14:58] [debug] [SeggerBackend] - read_access_port_register
[2023-Jan-16 00:14:58] [debug] [SeggerBackend] - ---just_read_access_port_register
[2023-Jan-16 00:14:58] [debug] [SeggerBackend] - ---just_select_access_port_register
[2023-Jan-16 00:14:58] [trace] [  JLink] - JLINK_CORESIGHT_ReadAPDPReg(AP reg 0x03)  
[2023-Jan-16 00:14:58] [trace] [  JLink] - Value=0x00000001
[2023-Jan-16 00:14:58] [trace] [  JLink] - - 0.251ms returns 0  
[2023-Jan-16 00:14:58] [trace] [  JLink] - JLINK_HasError()  
[2023-Jan-16 00:14:58] [debug] [SeggerBackend] - read_access_port_register
